
T36F8 000:312 SEGGER J-Link V4.96d Log File (0000ms, 0265ms total)
T36F8 000:312 DLL Compiled: Jan 29 2015 11:45:37 (0000ms, 0265ms total)
T36F8 000:312 Logging started @ 2018-07-20 08:54 (0000ms, 0265ms total)
T36F8 000:312 JLINK_SetWarnOutHandler(...) (0000ms, 0265ms total)
T36F8 000:312 JLINK_OpenEx(...)
Firmware: J-Link ARM V8 compiled Nov 28 2014 13:44:46
Hardware: V8.00
S/N: 1631096674
Feature(s): RDI,FlashDL,FlashBP,JFlash,GDBFULL  returns O.K. (0262ms, 0527ms total)
T36F8 000:574 JLINK_SetErrorOutHandler(...) (0000ms, 0527ms total)
T36F8 000:574 JLINK_ExecCommand("ProjectFile = "E:\32\¡¾08¡¿ºìÅ£°å_ADC(2016.05.04)\JLinkSettings.ini"", ...)  returns 0x00 (0000ms, 0527ms total)
T36F8 000:574 JLINK_ExecCommand("Device = STM32F103ZE", ...)Device "STM32F103ZE" selected.  returns 0x00 (0001ms, 0528ms total)
T36F8 000:575 JLINK_ExecCommand("DisableConnectionTimeout", ...)  returns 0x01 (0000ms, 0528ms total)
T36F8 000:575 JLINK_GetHardwareVersion()  returns 0x13880 (0000ms, 0528ms total)
T36F8 000:575 JLINK_GetDLLVersion()  returns 49604 (0000ms, 0528ms total)
T36F8 000:575 JLINK_GetFirmwareString(...) (0000ms, 0528ms total)
T36F8 000:576 JLINK_GetDLLVersion()  returns 49604 (0000ms, 0528ms total)
T36F8 000:576 JLINK_GetCompileDateTime() (0000ms, 0528ms total)
T36F8 000:577 JLINK_GetFirmwareString(...) (0000ms, 0528ms total)
T36F8 000:578 JLINK_GetHardwareVersion()  returns 0x13880 (0000ms, 0528ms total)
T36F8 000:584 JLINK_TIF_Select(JLINKARM_TIF_JTAG)  returns 0x00 (0001ms, 0529ms total)
T36F8 000:585 JLINK_SetSpeed(20000) (0000ms, 0529ms total)
T36F8 000:585 JLINK_GetIdData(...) >0x2F8 JTAG>TotalIRLen = 9, IRPrint = 0x0011 >0x30 JTAG> >0x210 JTAG> >0x40 JTAG> >0x40 JTAG> >0x40 JTAG> >0x30 JTAG> >0x40 JTAG> >0x40 JTAG> >0x40 JTAG> >0x40 JTAG> >0x40 JTAG> >0x40 JTAG> >0x40 JTAG> >0x40 JTAG> >0x2F8 JTAG>TotalIRLen = 9, IRPrint = 0x0011 >0x30 JTAG> >0x210 JTAG> >0x70 JTAG> >0x40 JTAG> >0x40 JTAG> >0x40 JTAG> >0x50 JTAG> >0x80 JTAG> >0x40 JTAG> >0x30 JTAG> >0x40 JTAG> >0x40 JTAG> >0x30 JTAG> >0x40 JTAG> >0x50 JTAG>
Found Cortex-M3 r1p1, Little endian. -- CPU_WriteMem(4 bytes @ 0xE0002000) -- CPU_ReadMem(4 bytes @ 0xE000EDF0) -- CPU_ReadMem(4 bytes @ 0xE0002000)FPUnit: 6 code (BP) slots and 2 literal slots -- CPU_ReadMem(4 bytes @ 0xE000EDFC) -- CPU_ReadMem(4 bytes @ 0xE0001000) -- CPU_WriteMem(4 bytes @ 0xE0001000) -- CPU_ReadMem(4 bytes @ 0xE000ED88) -- CPU_WriteMem(4 bytes @ 0xE000ED88) -- CPU_ReadMem(4 bytes @ 0xE000ED88) -- CPU_WriteMem(4 bytes @ 0xE000ED88) -- CPU_ReadMem(4 bytes @ 0xE00FF010)TPIU fitted.
 -- CPU_ReadMem(4 bytes @ 0xE00FF014)ETM fitted. -- CPU_ReadMem(4 bytes @ 0xE00FF018) ScanLen=9 NumDevices=2 aId[0]=0x3BA00477 aIrRead[0]=0 aScanLen[0]=0 aScanRead[0]=0 (0025ms, 0554ms total)
T36F8 000:610 JLINK_JTAG_GetDeviceID(DeviceIndex = 0)  returns 0x3BA00477 (0000ms, 0554ms total)
T36F8 000:610 JLINK_JTAG_GetDeviceInfo(DeviceIndex = 0)  returns 0x00 (0000ms, 0554ms total)
T36F8 000:610 JLINK_JTAG_GetDeviceID(DeviceIndex = 1)  returns 0x6414041 (0000ms, 0554ms total)
T36F8 000:611 JLINK_JTAG_GetDeviceInfo(DeviceIndex = 1)  returns 0x00 (0000ms, 0555ms total)
T36F8 000:611 JLINK_GetDLLVersion()  returns 49604 (0000ms, 0555ms total)
T36F8 000:611 JLINK_CORE_GetFound()  returns 0x30000FF (0000ms, 0555ms total)
T36F8 000:611 JLINK_GetDebugInfo(0x100) -- Value=0xE00FF003  returns 0x00 (0000ms, 0555ms total)
T36F8 000:612 JLINK_ReadMem (0xE00FF000, 0x0020 Bytes, ...) -- CPU is running -- CPU_ReadMem(32 bytes @ 0xE00FF000) - Data: 03 F0 F0 FF 03 20 F0 FF 03 30 F0 FF 03 10 F0 FF ...  returns 0x00 (0001ms, 0556ms total)
T36F8 000:613 JLINK_ReadMem (0xE000EFF0, 0x0010 Bytes, ...) -- CPU is running -- CPU_ReadMem(16 bytes @ 0xE000EFF0) - Data: 0D 00 00 00 E0 00 00 00 05 00 00 00 B1 00 00 00  returns 0x00 (0000ms, 0556ms total)
T36F8 000:613 JLINK_ReadMem (0xE000EFD0, 0x0020 Bytes, ...) -- CPU is running -- CPU_ReadMem(32 bytes @ 0xE000EFD0) - Data: 04 00 00 00 00 00 00 00 00 00 00 00 00 00 00 00 ...  returns 0x00 (0001ms, 0557ms total)
T36F8 000:614 JLINK_ReadMem (0xE0001FF0, 0x0010 Bytes, ...) -- CPU is running -- CPU_ReadMem(16 bytes @ 0xE0001FF0) - Data: 0D 00 00 00 E0 00 00 00 05 00 00 00 B1 00 00 00  returns 0x00 (0000ms, 0557ms total)
T36F8 000:614 JLINK_ReadMem (0xE0001FD0, 0x0020 Bytes, ...) -- CPU is running -- CPU_ReadMem(32 bytes @ 0xE0001FD0) - Data: 04 00 00 00 00 00 00 00 00 00 00 00 00 00 00 00 ...  returns 0x00 (0001ms, 0558ms total)
T36F8 000:615 JLINK_ReadMem (0xE0002FF0, 0x0010 Bytes, ...) -- CPU is running -- CPU_ReadMem(16 bytes @ 0xE0002FF0) - Data: 0D 00 00 00 E0 00 00 00 05 00 00 00 B1 00 00 00  returns 0x00 (0000ms, 0558ms total)
T36F8 000:615 JLINK_ReadMem (0xE0002FD0, 0x0020 Bytes, ...) -- CPU is running -- CPU_ReadMem(32 bytes @ 0xE0002FD0) - Data: 04 00 00 00 00 00 00 00 00 00 00 00 00 00 00 00 ...  returns 0x00 (0001ms, 0559ms total)
T36F8 000:616 JLINK_ReadMem (0xE0000FF0, 0x0010 Bytes, ...) -- CPU is running -- CPU_ReadMem(16 bytes @ 0xE0000FF0) - Data: 0D 00 00 00 E0 00 00 00 05 00 00 00 B1 00 00 00  returns 0x00 (0000ms, 0559ms total)
T36F8 000:616 JLINK_ReadMem (0xE0000FD0, 0x0020 Bytes, ...) -- CPU is running -- CPU_ReadMem(32 bytes @ 0xE0000FD0) - Data: 04 00 00 00 00 00 00 00 00 00 00 00 00 00 00 00 ...  returns 0x00 (0001ms, 0560ms total)
T36F8 000:617 JLINK_ReadMem (0xE0040FF0, 0x0010 Bytes, ...) -- CPU is running -- CPU_ReadMem(16 bytes @ 0xE0040FF0) - Data: 0D 00 00 00 90 00 00 00 05 00 00 00 B1 00 00 00  returns 0x00 (0001ms, 0561ms total)
T36F8 000:618 JLINK_ReadMem (0xE0040FD0, 0x0020 Bytes, ...) -- CPU is running -- CPU_ReadMem(32 bytes @ 0xE0040FD0) - Data: 04 00 00 00 00 00 00 00 00 00 00 00 00 00 00 00 ...  returns 0x00 (0000ms, 0561ms total)
T36F8 000:618 JLINK_ReadMem (0xE0041FF0, 0x0010 Bytes, ...) -- CPU is running -- CPU_ReadMem(16 bytes @ 0xE0041FF0) - Data: 0D 00 00 00 90 00 00 00 05 00 00 00 B1 00 00 00  returns 0x00 (0001ms, 0562ms total)
T36F8 000:619 JLINK_ReadMem (0xE0041FD0, 0x0020 Bytes, ...) -- CPU is running -- CPU_ReadMem(32 bytes @ 0xE0041FD0) - Data: 04 00 00 00 00 00 00 00 00 00 00 00 00 00 00 00 ...  returns 0x00 (0000ms, 0562ms total)
T36F8 000:619 JLINK_ReadMemU32(0xE000ED00, 0x0001 Items, ...) -- CPU is running -- CPU_ReadMem(4 bytes @ 0xE000ED00) - Data: 31 C2 1F 41  returns 0x01 (0001ms, 0563ms total)
T36F8 000:620 JLINK_SetResetType(JLINKARM_RESET_TYPE_NORMAL)  returns JLINKARM_RESET_TYPE_NORMAL (0000ms, 0563ms total)
T36F8 000:620 JLINK_Reset() -- CPU is running -- CPU_WriteMem(4 bytes @ 0xE000EDF0) -- CPU is running -- CPU_WriteMem(4 bytes @ 0xE000EDFC) -- CPU is running -- CPU_WriteMem(4 bytes @ 0xE000ED0C) -- CPU is running -- CPU_ReadMem(4 bytes @ 0xE000EDF0) -- CPU is running -- CPU_ReadMem(4 bytes @ 0xE000EDF0) -- CPU is running -- CPU_WriteMem(4 bytes @ 0xE000EDF0) -- CPU is running -- CPU_WriteMem(4 bytes @ 0xE000EDFC) -- CPU is running -- CPU_ReadMem(4 bytes @ 0xE000EDF0) >0x80 JTAG> >0x40 JTAG> >0x30 JTAG>
 >0x40 JTAG> >0x50 JTAG> >0x40 JTAG> -- CPU_WriteMem(4 bytes @ 0xE000EDFC) -- CPU_WriteMem(4 bytes @ 0xE0001028) -- CPU_WriteMem(4 bytes @ 0xE0001038) -- CPU_WriteMem(4 bytes @ 0xE0001048) -- CPU_WriteMem(4 bytes @ 0xE0001058) -- CPU_WriteMem(4 bytes @ 0xE0002000) -- CPU_ReadMem(4 bytes @ 0xE000EDFC) -- CPU_ReadMem(4 bytes @ 0xE0001000) (0023ms, 0586ms total)
T36F8 000:643 JLINK_ReadReg(R15 (PC))  returns 0x08000144 (0000ms, 0586ms total)
T36F8 000:644 JLINK_ReadReg(XPSR)  returns 0x01000000 (0000ms, 0587ms total)
T36F8 000:644 JLINK_Halt()  returns 0x00 (0000ms, 0587ms total)
T36F8 000:644 JLINK_IsHalted()  returns TRUE (0000ms, 0587ms total)
T36F8 000:644 JLINK_ReadMemU32(0xE000EDF0, 0x0001 Items, ...) -- CPU_ReadMem(4 bytes @ 0xE000EDF0) - Data: 03 00 03 00  returns 0x01 (0000ms, 0587ms total)
T36F8 000:644 JLINK_WriteU32(0xE000EDF0, 0xA05F0003) -- CPU_WriteMem(4 bytes @ 0xE000EDF0)  returns 0x00 (0001ms, 0588ms total)
T36F8 000:645 JLINK_WriteU32(0xE000EDFC, 0x01000000) -- CPU_WriteMem(4 bytes @ 0xE000EDFC)  returns 0x00 (0000ms, 0588ms total)
T36F8 000:647 JLINK_GetHWStatus(...)  returns 0x00 (0000ms, 0588ms total)
T36F8 000:648 JLINK_GetNumBPUnits(Type = 0xFFFFFF00)  returns 0x06 (0000ms, 0588ms total)
T36F8 000:648 JLINK_GetNumBPUnits(Type = 0xF0)  returns 0x2000 (0000ms, 0588ms total)
T36F8 000:648 JLINK_GetNumWPUnits()  returns 0x04 (0000ms, 0588ms total)
T36F8 000:648 JLINK_GetSpeed()  returns 0x2EE0 (0000ms, 0588ms total)
T36F8 000:649 JLINK_ReadMemU32(0xE000E004, 0x0001 Items, ...) -- CPU_ReadMem(4 bytes @ 0xE000E004) - Data: 01 00 00 00  returns 0x01 (0000ms, 0588ms total)
T36F8 000:649 JLINK_ReadMemU32(0xE000E004, 0x0001 Items, ...) -- CPU_ReadMem(4 bytes @ 0xE000E004) - Data: 01 00 00 00  returns 0x01 (0001ms, 0589ms total)
T36F8 000:650 JLINK_WriteMem(0xE0001000, 0x001C Bytes, ...) - Data: 01 00 00 00 00 00 00 00 00 00 00 00 00 00 00 00 ... -- CPU_WriteMem(28 bytes @ 0xE0001000)  returns 0x1C (0001ms, 0590ms total)
T36F8 000:651 JLINK_ReadMem (0xE0001000, 0x001C Bytes, ...) -- CPU_ReadMem(28 bytes @ 0xE0001000) - Data: 01 00 00 40 00 00 00 00 00 00 00 00 00 00 00 00 ...  returns 0x00 (0000ms, 0590ms total)
T36F8 000:651 JLINK_ReadReg(R15 (PC))  returns 0x08000144 (0000ms, 0590ms total)
T36F8 000:651 JLINK_ReadReg(XPSR)  returns 0x01000000 (0000ms, 0590ms total)
T36F8 000:741 JLINK_SetResetType(JLINKARM_RESET_TYPE_NORMAL)  returns JLINKARM_RESET_TYPE_NORMAL (0000ms, 0590ms total)
T36F8 000:741 JLINK_Reset() -- CPU_WriteMem(4 bytes @ 0xE000EDF0) -- CPU_WriteMem(4 bytes @ 0xE000EDFC) -- CPU_WriteMem(4 bytes @ 0xE000ED0C) -- CPU_ReadMem(4 bytes @ 0xE000EDF0) -- CPU_ReadMem(4 bytes @ 0xE000EDF0) -- CPU_WriteMem(4 bytes @ 0xE000EDF0) -- CPU_WriteMem(4 bytes @ 0xE000EDFC) -- CPU is running -- CPU_ReadMem(4 bytes @ 0xE000EDF0) >0x80 JTAG> >0x40 JTAG> >0x30 JTAG> >0x40 JTAG> >0x50 JTAG> >0x40 JTAG> -- CPU_WriteMem(4 bytes @ 0xE000EDFC) -- CPU_WriteMem(4 bytes @ 0xE0001028)
 -- CPU_WriteMem(4 bytes @ 0xE0001038) -- CPU_WriteMem(4 bytes @ 0xE0001048) -- CPU_WriteMem(4 bytes @ 0xE0001058) -- CPU_WriteMem(4 bytes @ 0xE0002000) -- CPU_ReadMem(4 bytes @ 0xE000EDFC) -- CPU_ReadMem(4 bytes @ 0xE0001000) (0023ms, 0613ms total)
T36F8 000:764 JLINK_ReadReg(R15 (PC))  returns 0x08000144 (0000ms, 0613ms total)
T36F8 000:764 JLINK_ReadReg(XPSR)  returns 0x01000000 (0000ms, 0613ms total)
T36F8 000:994 JLINK_ReadMem (0x08000144, 0x003C Bytes, ...) -- CPU_ReadMem(64 bytes @ 0x08000140) -- Updating C cache (64 bytes @ 0x08000140) -- Read from C cache (60 bytes @ 0x08000144) - Data: 06 48 80 47 06 48 00 47 FE E7 FE E7 FE E7 FE E7 ...  returns 0x00 (0001ms, 0614ms total)
T36F8 001:707 JLINK_ReadMem (0x00000000, 0x004E Bytes, ...) -- CPU_ReadMem(4 bytes @ 0x00000004) -- CPU_ReadMem(128 bytes @ 0x08000000) -- Updating C cache (128 bytes @ 0x08000000) -- Read from C cache (78 bytes @ 0x08000000) - Data: C8 04 00 20 45 01 00 08 BD 20 00 08 BF 20 00 08 ...  returns 0x00 (0002ms, 0616ms total)
T2714 002:374 JLINK_SetBPEx(Addr = 0x08001FB0, Type = 0xFFFFFFF2)  returns 0x00000001 (0000ms, 0616ms total)
T2714 002:374 JLINK_Go() -- CPU_WriteMem(4 bytes @ 0xE0002008) -- CPU_WriteMem(4 bytes @ 0xE000200C) -- CPU_WriteMem(4 bytes @ 0xE0002010) -- CPU_WriteMem(4 bytes @ 0xE0002014) -- CPU_WriteMem(4 bytes @ 0xE0002018) -- CPU_WriteMem(4 bytes @ 0xE000201C) -- CPU_WriteMem(4 bytes @ 0xE0001004) (0003ms, 0619ms total)
T2714 002:478 JLINK_IsHalted()  returns TRUE (0002ms, 0622ms total)
T2714 002:480 JLINK_Halt()  returns 0x00 (0000ms, 0620ms total)
T2714 002:480 JLINK_IsHalted()  returns TRUE (0000ms, 0620ms total)
T2714 002:480 JLINK_IsHalted()  returns TRUE (0000ms, 0620ms total)
T2714 002:480 JLINK_IsHalted()  returns TRUE (0000ms, 0620ms total)
T2714 002:480 JLINK_ReadReg(R15 (PC))  returns 0x08001FB0 (0000ms, 0620ms total)
T2714 002:480 JLINK_ReadReg(XPSR)  returns 0x61000000 (0000ms, 0620ms total)
T2714 002:480 JLINK_ClrBPEx(BPHandle = 0x00000001)  returns 0x00 (0000ms, 0620ms total)
T2714 002:480 JLINK_ReadMemU32(0xE000ED30, 0x0001 Items, ...) -- CPU_ReadMem(4 bytes @ 0xE000ED30) - Data: 03 00 00 00  returns 0x01 (0001ms, 0621ms total)
T2714 002:481 JLINK_ReadMemU32(0xE0001028, 0x0001 Items, ...) -- CPU_ReadMem(4 bytes @ 0xE0001028) - Data: 00 00 00 00  returns 0x01 (0000ms, 0621ms total)
T2714 002:481 JLINK_ReadMemU32(0xE0001038, 0x0001 Items, ...) -- CPU_ReadMem(4 bytes @ 0xE0001038) - Data: 00 02 00 00  returns 0x01 (0001ms, 0622ms total)
T2714 002:482 JLINK_ReadMemU32(0xE0001048, 0x0001 Items, ...) -- CPU_ReadMem(4 bytes @ 0xE0001048) - Data: 00 00 00 00  returns 0x01 (0000ms, 0622ms total)
T2714 002:482 JLINK_ReadMemU32(0xE0001058, 0x0001 Items, ...) -- CPU_ReadMem(4 bytes @ 0xE0001058) - Data: 00 00 00 00  returns 0x01 (0001ms, 0623ms total)
T2714 002:483 JLINK_ReadReg(R0)  returns 0x08001FB1 (0000ms, 0623ms total)
T2714 002:483 JLINK_ReadReg(R1)  returns 0x200004C8 (0000ms, 0623ms total)
T2714 002:483 JLINK_ReadReg(R2)  returns 0x00000000 (0000ms, 0623ms total)
T2714 002:483 JLINK_ReadReg(R3)  returns 0x08002201 (0000ms, 0623ms total)
T2714 002:483 JLINK_ReadReg(R4)  returns 0x08002400 (0000ms, 0623ms total)
T2714 002:483 JLINK_ReadReg(R5)  returns 0x08002400 (0000ms, 0623ms total)
T2714 002:483 JLINK_ReadReg(R6)  returns 0x00000000 (0000ms, 0623ms total)
T2714 002:483 JLINK_ReadReg(R7)  returns 0x00000000 (0000ms, 0623ms total)
T2714 002:483 JLINK_ReadReg(R8)  returns 0x00000000 (0000ms, 0623ms total)
T2714 002:483 JLINK_ReadReg(R9)  returns 0x20000160 (0000ms, 0623ms total)
T2714 002:483 JLINK_ReadReg(R10)  returns 0x00000000 (0000ms, 0623ms total)
T2714 002:483 JLINK_ReadReg(R11)  returns 0x00000000 (0000ms, 0623ms total)
T2714 002:483 JLINK_ReadReg(R12)  returns 0x00000014 (0000ms, 0623ms total)
T2714 002:484 JLINK_ReadReg(R13 (SP))  returns 0x200004C8 (0000ms, 0624ms total)
T2714 002:484 JLINK_ReadReg(R14)  returns 0x080021D9 (0000ms, 0624ms total)
T2714 002:484 JLINK_ReadReg(R15 (PC))  returns 0x08001FB0 (0000ms, 0624ms total)
T2714 002:484 JLINK_ReadReg(XPSR)  returns 0x61000000 (0000ms, 0624ms total)
T2714 002:484 JLINK_ReadReg(MSP)  returns 0x200004C8 (0000ms, 0624ms total)
T2714 002:484 JLINK_ReadReg(PSP)  returns 0x20001000 (0000ms, 0624ms total)
T2714 002:484 JLINK_ReadReg(CFBP)  returns 0x00000000 (0000ms, 0624ms total)
T36F8 002:488 JLINK_ReadMemU32(0xE0001004, 0x0001 Items, ...) -- CPU_ReadMem(4 bytes @ 0xE0001004) - Data: F0 1B 00 00  returns 0x01 (0001ms, 0625ms total)
T36F8 002:492 JLINK_ReadMem (0x08001FB0, 0x003C Bytes, ...) -- CPU_ReadMem(128 bytes @ 0x08001F80) -- Updating C cache (128 bytes @ 0x08001F80) -- Read from C cache (60 bytes @ 0x08001FB0) - Data: 00 BF FF F7 F9 FE FF F7 BF FC FF F7 B9 FD FF F7 ...  returns 0x00 (0002ms, 0627ms total)
T2714 020:232 JLINK_Step() -- Read from C cache (2 bytes @ 0x08001FB0) -- Simulated  returns 0x00 (0000ms, 0627ms total)
T2714 020:232 JLINK_ReadReg(R15 (PC))  returns 0x08001FB2 (0001ms, 0628ms total)
T2714 020:233 JLINK_ReadReg(XPSR)  returns 0x61000000 (0000ms, 0628ms total)
T2714 020:233 JLINK_ReadReg(R0)  returns 0x08001FB1 (0000ms, 0628ms total)
T2714 020:233 JLINK_ReadReg(R1)  returns 0x200004C8 (0000ms, 0628ms total)
T2714 020:233 JLINK_ReadReg(R2)  returns 0x00000000 (0000ms, 0628ms total)
T2714 020:233 JLINK_ReadReg(R3)  returns 0x08002201 (0000ms, 0628ms total)
T2714 020:233 JLINK_ReadReg(R4)  returns 0x08002400 (0000ms, 0628ms total)
T2714 020:233 JLINK_ReadReg(R5)  returns 0x08002400 (0000ms, 0628ms total)
T2714 020:233 JLINK_ReadReg(R6)  returns 0x00000000 (0000ms, 0628ms total)
T2714 020:233 JLINK_ReadReg(R7)  returns 0x00000000 (0000ms, 0628ms total)
T2714 020:233 JLINK_ReadReg(R8)  returns 0x00000000 (0000ms, 0628ms total)
T2714 020:233 JLINK_ReadReg(R9)  returns 0x20000160 (0000ms, 0628ms total)
T2714 020:233 JLINK_ReadReg(R10)  returns 0x00000000 (0000ms, 0628ms total)
T2714 020:233 JLINK_ReadReg(R11)  returns 0x00000000 (0000ms, 0628ms total)
T2714 020:233 JLINK_ReadReg(R12)  returns 0x00000014 (0000ms, 0628ms total)
T2714 020:233 JLINK_ReadReg(R13 (SP))  returns 0x200004C8 (0000ms, 0628ms total)
T2714 020:233 JLINK_ReadReg(R14)  returns 0x080021D9 (0001ms, 0629ms total)
T2714 020:234 JLINK_ReadReg(R15 (PC))  returns 0x08001FB2 (0000ms, 0629ms total)
T2714 020:234 JLINK_ReadReg(XPSR)  returns 0x61000000 (0000ms, 0629ms total)
T2714 020:234 JLINK_ReadReg(MSP)  returns 0x200004C8 (0000ms, 0629ms total)
T2714 020:234 JLINK_ReadReg(PSP)  returns 0x20001000 (0000ms, 0629ms total)
T2714 020:234 JLINK_ReadReg(CFBP)  returns 0x00000000 (0000ms, 0629ms total)
T36F8 020:240 JLINK_ReadMemU32(0xE0001004, 0x0001 Items, ...) - Data: F0 1B 00 00  returns 0x01 (0000ms, 0629ms total)
T36F8 020:258 JLINK_ReadMem (0x08001FB0, 0x003C Bytes, ...) -- Read from C cache (60 bytes @ 0x08001FB0) - Data: 00 BF FF F7 F9 FE FF F7 BF FC FF F7 B9 FD FF F7 ...  returns 0x00 (0000ms, 0629ms total)
T2714 020:927 JLINK_Step() -- Read from C cache (2 bytes @ 0x08001FB2) -- Read from C cache (2 bytes @ 0x08001FB4) -- Simulated  returns 0x00 (0000ms, 0629ms total)
T2714 020:927 JLINK_ReadReg(R15 (PC))  returns 0x08001DA8 (0000ms, 0629ms total)
T2714 020:927 JLINK_ReadReg(XPSR)  returns 0x61000000 (0000ms, 0629ms total)
T2714 020:927 JLINK_ReadReg(R0)  returns 0x08001FB1 (0000ms, 0629ms total)
T2714 020:927 JLINK_ReadReg(R1)  returns 0x200004C8 (0001ms, 0630ms total)
T2714 020:928 JLINK_ReadReg(R2)  returns 0x00000000 (0000ms, 0630ms total)
T2714 020:928 JLINK_ReadReg(R3)  returns 0x08002201 (0000ms, 0630ms total)
T2714 020:928 JLINK_ReadReg(R4)  returns 0x08002400 (0000ms, 0630ms total)
T2714 020:928 JLINK_ReadReg(R5)  returns 0x08002400 (0000ms, 0630ms total)
T2714 020:928 JLINK_ReadReg(R6)  returns 0x00000000 (0000ms, 0630ms total)
T2714 020:928 JLINK_ReadReg(R7)  returns 0x00000000 (0000ms, 0630ms total)
T2714 020:928 JLINK_ReadReg(R8)  returns 0x00000000 (0000ms, 0630ms total)
T2714 020:928 JLINK_ReadReg(R9)  returns 0x20000160 (0000ms, 0630ms total)
T2714 020:928 JLINK_ReadReg(R10)  returns 0x00000000 (0000ms, 0630ms total)
T2714 020:928 JLINK_ReadReg(R11)  returns 0x00000000 (0000ms, 0630ms total)
T2714 020:928 JLINK_ReadReg(R12)  returns 0x00000014 (0000ms, 0630ms total)
T2714 020:928 JLINK_ReadReg(R13 (SP))  returns 0x200004C8 (0000ms, 0630ms total)
T2714 020:928 JLINK_ReadReg(R14)  returns 0x08001FB7 (0000ms, 0630ms total)
T2714 020:928 JLINK_ReadReg(R15 (PC))  returns 0x08001DA8 (0000ms, 0630ms total)
T2714 020:928 JLINK_ReadReg(XPSR)  returns 0x61000000 (0000ms, 0630ms total)
T2714 020:928 JLINK_ReadReg(MSP)  returns 0x200004C8 (0000ms, 0630ms total)
T2714 020:928 JLINK_ReadReg(PSP)  returns 0x20001000 (0001ms, 0631ms total)
T2714 020:929 JLINK_ReadReg(CFBP)  returns 0x00000000 (0000ms, 0631ms total)
T36F8 020:932 JLINK_ReadMem (0x00000000, 0x0001 Bytes, ...) -- CPU_ReadMem(4 bytes @ 0x00000004) -- CPU_ReadMem(64 bytes @ 0x08000000) -- Updating C cache (64 bytes @ 0x08000000) -- Read from C cache (1 bytes @ 0x08000000) - Data: C8  returns 0x00 (0001ms, 0632ms total)
T36F8 020:938 JLINK_ReadMemU32(0xE0001004, 0x0001 Items, ...) - Data: F0 1B 00 00  returns 0x01 (0000ms, 0632ms total)
T36F8 020:943 JLINK_ReadMem (0x08001DA8, 0x003C Bytes, ...) -- CPU_ReadMem(128 bytes @ 0x08001D80) -- Updating C cache (128 bytes @ 0x08001D80) -- Read from C cache (60 bytes @ 0x08001DA8) - Data: 10 B5 FE F7 C7 FF 4F F4 80 30 FE F7 E3 FF FF F7 ...  returns 0x00 (0002ms, 0634ms total)
T36F8 020:967 JLINK_ReadMem (0x08001E22, 0x0002 Bytes, ...) -- CPU_ReadMem(64 bytes @ 0x08001E00) -- Updating C cache (64 bytes @ 0x08001E00) -- Read from C cache (2 bytes @ 0x08001E22) - Data: 08 20  returns 0x00 (0001ms, 0635ms total)
T36F8 020:968 JLINK_ReadMem (0x08001E24, 0x003C Bytes, ...) -- CPU_ReadMem(64 bytes @ 0x08001E40) -- Updating C cache (64 bytes @ 0x08001E40) -- Read from C cache (60 bytes @ 0x08001E24) - Data: AD F8 18 00 00 20 8D F8 1B 00 06 A9 1B 48 FE F7 ...  returns 0x00 (0001ms, 0636ms total)
T2714 021:675 JLINK_Step() -- Read from C cache (2 bytes @ 0x08001DA8) -- CPU_WriteMem(8 bytes @ 0x200004C0) -- Simulated  returns 0x00 (0001ms, 0637ms total)
T2714 021:676 JLINK_ReadReg(R15 (PC))  returns 0x08001DAA (0000ms, 0637ms total)
T2714 021:676 JLINK_ReadReg(XPSR)  returns 0x61000000 (0000ms, 0637ms total)
T2714 021:676 JLINK_ReadReg(R0)  returns 0x08001FB1 (0000ms, 0637ms total)
T2714 021:676 JLINK_ReadReg(R1)  returns 0x200004C8 (0000ms, 0637ms total)
T2714 021:676 JLINK_ReadReg(R2)  returns 0x00000000 (0000ms, 0637ms total)
T2714 021:676 JLINK_ReadReg(R3)  returns 0x08002201 (0000ms, 0637ms total)
T2714 021:676 JLINK_ReadReg(R4)  returns 0x08002400 (0000ms, 0637ms total)
T2714 021:676 JLINK_ReadReg(R5)  returns 0x08002400 (0000ms, 0637ms total)
T2714 021:676 JLINK_ReadReg(R6)  returns 0x00000000 (0001ms, 0638ms total)
T2714 021:677 JLINK_ReadReg(R7)  returns 0x00000000 (0000ms, 0638ms total)
T2714 021:677 JLINK_ReadReg(R8)  returns 0x00000000 (0000ms, 0638ms total)
T2714 021:677 JLINK_ReadReg(R9)  returns 0x20000160 (0000ms, 0638ms total)
T2714 021:677 JLINK_ReadReg(R10)  returns 0x00000000 (0000ms, 0638ms total)
T2714 021:677 JLINK_ReadReg(R11)  returns 0x00000000 (0000ms, 0638ms total)
T2714 021:677 JLINK_ReadReg(R12)  returns 0x00000014 (0000ms, 0638ms total)
T2714 021:677 JLINK_ReadReg(R13 (SP))  returns 0x200004C0 (0000ms, 0638ms total)
T2714 021:677 JLINK_ReadReg(R14)  returns 0x08001FB7 (0000ms, 0638ms total)
T2714 021:677 JLINK_ReadReg(R15 (PC))  returns 0x08001DAA (0000ms, 0638ms total)
T2714 021:677 JLINK_ReadReg(XPSR)  returns 0x61000000 (0000ms, 0638ms total)
T2714 021:677 JLINK_ReadReg(MSP)  returns 0x200004C0 (0000ms, 0638ms total)
T2714 021:677 JLINK_ReadReg(PSP)  returns 0x20001000 (0000ms, 0638ms total)
T2714 021:677 JLINK_ReadReg(CFBP)  returns 0x00000000 (0000ms, 0638ms total)
T36F8 021:682 JLINK_ReadMem (0x200004C4, 0x0004 Bytes, ...) -- CPU_ReadMem(64 bytes @ 0x200004C0) -- Updating C cache (64 bytes @ 0x200004C0) -- Read from C cache (4 bytes @ 0x200004C4) - Data: B7 1F 00 08  returns 0x00 (0001ms, 0639ms total)
T36F8 021:683 JLINK_ReadMem (0x200004C0, 0x0004 Bytes, ...) -- Read from C cache (4 bytes @ 0x200004C0) - Data: 00 24 00 08  returns 0x00 (0000ms, 0639ms total)
T36F8 021:683 JLINK_ReadMem (0x00000000, 0x0001 Bytes, ...) -- Read from C cache (1 bytes @ 0x08000000) - Data: C8  returns 0x00 (0000ms, 0639ms total)
T36F8 021:683 JLINK_ReadMemU32(0xE0001004, 0x0001 Items, ...) - Data: F0 1B 00 00  returns 0x01 (0000ms, 0639ms total)
T36F8 021:700 JLINK_ReadMem (0x08001DAA, 0x0002 Bytes, ...) -- Read from C cache (2 bytes @ 0x08001DAA) - Data: FE F7  returns 0x00 (0000ms, 0639ms total)
T36F8 021:700 JLINK_ReadMem (0x08001DAC, 0x003C Bytes, ...) -- Read from C cache (60 bytes @ 0x08001DAC) - Data: C7 FF 4F F4 80 30 FE F7 E3 FF FF F7 20 F8 04 46 ...  returns 0x00 (0001ms, 0640ms total)
T2714 022:218 JLINK_Step() -- Read from C cache (2 bytes @ 0x08001DAA) -- Read from C cache (2 bytes @ 0x08001DAC) -- Simulated  returns 0x00 (0000ms, 0640ms total)
T2714 022:218 JLINK_ReadReg(R15 (PC))  returns 0x08000D3C (0000ms, 0640ms total)
T2714 022:218 JLINK_ReadReg(XPSR)  returns 0x61000000 (0000ms, 0640ms total)
T2714 022:218 JLINK_ReadReg(R0)  returns 0x08001FB1 (0000ms, 0640ms total)
T2714 022:218 JLINK_ReadReg(R1)  returns 0x200004C8 (0001ms, 0641ms total)
T2714 022:219 JLINK_ReadReg(R2)  returns 0x00000000 (0000ms, 0641ms total)
T2714 022:219 JLINK_ReadReg(R3)  returns 0x08002201 (0000ms, 0641ms total)
T2714 022:219 JLINK_ReadReg(R4)  returns 0x08002400 (0000ms, 0641ms total)
T2714 022:219 JLINK_ReadReg(R5)  returns 0x08002400 (0000ms, 0641ms total)
T2714 022:219 JLINK_ReadReg(R6)  returns 0x00000000 (0000ms, 0641ms total)
T2714 022:219 JLINK_ReadReg(R7)  returns 0x00000000 (0001ms, 0642ms total)
T2714 022:220 JLINK_ReadReg(R8)  returns 0x00000000 (0000ms, 0642ms total)
T2714 022:220 JLINK_ReadReg(R9)  returns 0x20000160 (0000ms, 0642ms total)
T2714 022:220 JLINK_ReadReg(R10)  returns 0x00000000 (0000ms, 0642ms total)
T2714 022:220 JLINK_ReadReg(R11)  returns 0x00000000 (0000ms, 0642ms total)
T2714 022:220 JLINK_ReadReg(R12)  returns 0x00000014 (0000ms, 0642ms total)
T2714 022:220 JLINK_ReadReg(R13 (SP))  returns 0x200004C0 (0000ms, 0642ms total)
T2714 022:220 JLINK_ReadReg(R14)  returns 0x08001DAF (0000ms, 0642ms total)
T2714 022:220 JLINK_ReadReg(R15 (PC))  returns 0x08000D3C (0000ms, 0642ms total)
T2714 022:220 JLINK_ReadReg(XPSR)  returns 0x61000000 (0000ms, 0642ms total)
T2714 022:220 JLINK_ReadReg(MSP)  returns 0x200004C0 (0000ms, 0642ms total)
T2714 022:220 JLINK_ReadReg(PSP)  returns 0x20001000 (0000ms, 0642ms total)
T2714 022:220 JLINK_ReadReg(CFBP)  returns 0x00000000 (0001ms, 0643ms total)
T36F8 022:264 JLINK_ReadMem (0x200004C4, 0x0004 Bytes, ...) -- Read from C cache (4 bytes @ 0x200004C4) - Data: B7 1F 00 08  returns 0x00 (0000ms, 0643ms total)
T36F8 022:264 JLINK_ReadMem (0x200004C0, 0x0004 Bytes, ...) -- Read from C cache (4 bytes @ 0x200004C0) - Data: 00 24 00 08  returns 0x00 (0000ms, 0643ms total)
T36F8 022:269 JLINK_ReadMem (0x00000000, 0x0001 Bytes, ...) -- Read from C cache (1 bytes @ 0x08000000) - Data: C8  returns 0x00 (0000ms, 0643ms total)
T36F8 022:269 JLINK_ReadMemU32(0xE0001004, 0x0001 Items, ...) - Data: F0 1B 00 00  returns 0x01 (0001ms, 0644ms total)
T36F8 022:275 JLINK_ReadMem (0x08000D3C, 0x003C Bytes, ...) -- CPU_ReadMem(128 bytes @ 0x08000D00) -- Updating C cache (128 bytes @ 0x08000D00) -- Read from C cache (60 bytes @ 0x08000D3C) - Data: DF 48 00 68 40 F0 01 00 DD 49 08 60 08 46 40 68 ...  returns 0x00 (0001ms, 0645ms total)
T2714 023:010 JLINK_Step() -- Read from C cache (2 bytes @ 0x08000D3C) -- CPU_ReadMem(64 bytes @ 0x08001080) -- Updating C cache (64 bytes @ 0x08001080) -- Read from C cache (4 bytes @ 0x080010BC) -- Simulated  returns 0x00 (0001ms, 0647ms total)
T2714 023:011 JLINK_ReadReg(R15 (PC))  returns 0x08000D3E (0001ms, 0648ms total)
T2714 023:012 JLINK_ReadReg(XPSR)  returns 0x61000000 (0000ms, 0648ms total)
T2714 023:012 JLINK_ReadReg(R0)  returns 0x40021000 (0000ms, 0648ms total)
T2714 023:012 JLINK_ReadReg(R1)  returns 0x200004C8 (0000ms, 0648ms total)
T2714 023:012 JLINK_ReadReg(R2)  returns 0x00000000 (0000ms, 0648ms total)
T2714 023:012 JLINK_ReadReg(R3)  returns 0x08002201 (0000ms, 0648ms total)
T2714 023:012 JLINK_ReadReg(R4)  returns 0x08002400 (0000ms, 0648ms total)
T2714 023:012 JLINK_ReadReg(R5)  returns 0x08002400 (0000ms, 0648ms total)
T2714 023:012 JLINK_ReadReg(R6)  returns 0x00000000 (0000ms, 0648ms total)
T2714 023:012 JLINK_ReadReg(R7)  returns 0x00000000 (0000ms, 0648ms total)
T2714 023:012 JLINK_ReadReg(R8)  returns 0x00000000 (0000ms, 0648ms total)
T2714 023:012 JLINK_ReadReg(R9)  returns 0x20000160 (0000ms, 0648ms total)
T2714 023:012 JLINK_ReadReg(R10)  returns 0x00000000 (0000ms, 0648ms total)
T2714 023:012 JLINK_ReadReg(R11)  returns 0x00000000 (0000ms, 0648ms total)
T2714 023:012 JLINK_ReadReg(R12)  returns 0x00000014 (0000ms, 0648ms total)
T2714 023:012 JLINK_ReadReg(R13 (SP))  returns 0x200004C0 (0000ms, 0648ms total)
T2714 023:012 JLINK_ReadReg(R14)  returns 0x08001DAF (0000ms, 0648ms total)
T2714 023:012 JLINK_ReadReg(R15 (PC))  returns 0x08000D3E (0001ms, 0649ms total)
T2714 023:013 JLINK_ReadReg(XPSR)  returns 0x61000000 (0000ms, 0649ms total)
T2714 023:013 JLINK_ReadReg(MSP)  returns 0x200004C0 (0000ms, 0649ms total)
T2714 023:013 JLINK_ReadReg(PSP)  returns 0x20001000 (0000ms, 0649ms total)
T2714 023:013 JLINK_ReadReg(CFBP)  returns 0x00000000 (0000ms, 0649ms total)
T36F8 023:015 JLINK_ReadMem (0x200004C4, 0x0004 Bytes, ...) -- Read from C cache (4 bytes @ 0x200004C4) - Data: B7 1F 00 08  returns 0x00 (0000ms, 0649ms total)
T36F8 023:015 JLINK_ReadMem (0x200004C0, 0x0004 Bytes, ...) -- Read from C cache (4 bytes @ 0x200004C0) - Data: 00 24 00 08  returns 0x00 (0000ms, 0649ms total)
T36F8 023:016 JLINK_ReadMem (0x00000000, 0x0001 Bytes, ...) -- Read from C cache (1 bytes @ 0x08000000) - Data: C8  returns 0x00 (0000ms, 0650ms total)
T36F8 023:016 JLINK_ReadMemU32(0xE0001004, 0x0001 Items, ...) - Data: F0 1B 00 00  returns 0x01 (0000ms, 0650ms total)
T36F8 023:021 JLINK_ReadMem (0x08000D3E, 0x0002 Bytes, ...) -- Read from C cache (2 bytes @ 0x08000D3E) - Data: 00 68  returns 0x00 (0000ms, 0650ms total)
T36F8 023:021 JLINK_ReadMem (0x08000D40, 0x003C Bytes, ...) -- Read from C cache (60 bytes @ 0x08000D40) - Data: 40 F0 01 00 DD 49 08 60 08 46 40 68 DC 49 08 40 ...  returns 0x00 (0000ms, 0650ms total)
T2714 023:624 JLINK_Step() -- Read from C cache (2 bytes @ 0x08000D3E) -- Not simulated -- CPU_WriteMem(4 bytes @ 0xE0002008) -- CPU_WriteMem(4 bytes @ 0xE0001004)  returns 0x00 (0005ms, 0655ms total)
T2714 023:629 JLINK_ReadReg(R15 (PC))  returns 0x08000D40 (0000ms, 0655ms total)
T2714 023:629 JLINK_ReadReg(XPSR)  returns 0x61000000 (0000ms, 0655ms total)
T2714 023:629 JLINK_ReadReg(R0)  returns 0x03035283 (0000ms, 0655ms total)
T2714 023:629 JLINK_ReadReg(R1)  returns 0x200004C8 (0000ms, 0655ms total)
T2714 023:629 JLINK_ReadReg(R2)  returns 0x00000000 (0000ms, 0655ms total)
T2714 023:629 JLINK_ReadReg(R3)  returns 0x08002201 (0000ms, 0655ms total)
T2714 023:629 JLINK_ReadReg(R4)  returns 0x08002400 (0000ms, 0655ms total)
T2714 023:629 JLINK_ReadReg(R5)  returns 0x08002400 (0000ms, 0655ms total)
T2714 023:629 JLINK_ReadReg(R6)  returns 0x00000000 (0001ms, 0656ms total)
T2714 023:630 JLINK_ReadReg(R7)  returns 0x00000000 (0000ms, 0656ms total)
T2714 023:630 JLINK_ReadReg(R8)  returns 0x00000000 (0000ms, 0656ms total)
T2714 023:630 JLINK_ReadReg(R9)  returns 0x20000160 (0000ms, 0656ms total)
T2714 023:630 JLINK_ReadReg(R10)  returns 0x00000000 (0000ms, 0656ms total)
T2714 023:630 JLINK_ReadReg(R11)  returns 0x00000000 (0000ms, 0656ms total)
T2714 023:630 JLINK_ReadReg(R12)  returns 0x00000014 (0000ms, 0656ms total)
T2714 023:630 JLINK_ReadReg(R13 (SP))  returns 0x200004C0 (0000ms, 0656ms total)
T2714 023:630 JLINK_ReadReg(R14)  returns 0x08001DAF (0000ms, 0656ms total)
T2714 023:630 JLINK_ReadReg(R15 (PC))  returns 0x08000D40 (0000ms, 0656ms total)
T2714 023:630 JLINK_ReadReg(XPSR)  returns 0x61000000 (0000ms, 0656ms total)
T2714 023:630 JLINK_ReadReg(MSP)  returns 0x200004C0 (0000ms, 0656ms total)
T2714 023:630 JLINK_ReadReg(PSP)  returns 0x20001000 (0001ms, 0657ms total)
T2714 023:631 JLINK_ReadReg(CFBP)  returns 0x00000000 (0000ms, 0657ms total)
T36F8 023:632 JLINK_ReadMem (0x200004C4, 0x0004 Bytes, ...) -- CPU_ReadMem(64 bytes @ 0x200004C0) -- Updating C cache (64 bytes @ 0x200004C0) -- Read from C cache (4 bytes @ 0x200004C4) - Data: B7 1F 00 08  returns 0x00 (0000ms, 0657ms total)
T36F8 023:632 JLINK_ReadMem (0x200004C0, 0x0004 Bytes, ...) -- Read from C cache (4 bytes @ 0x200004C0) - Data: 00 24 00 08  returns 0x00 (0000ms, 0657ms total)
T36F8 023:632 JLINK_ReadMem (0x00000000, 0x0001 Bytes, ...) -- CPU_ReadMem(4 bytes @ 0x00000004) -- CPU_ReadMem(64 bytes @ 0x08000000) -- Updating C cache (64 bytes @ 0x08000000) -- Read from C cache (1 bytes @ 0x08000000) - Data: C8  returns 0x00 (0001ms, 0658ms total)
T36F8 023:634 JLINK_ReadMemU32(0xE0001004, 0x0001 Items, ...) -- CPU_ReadMem(4 bytes @ 0xE0001004) - Data: FB 1B 00 00  returns 0x01 (0000ms, 0659ms total)
T2714 024:631 JLINK_Step() -- CPU_ReadMem(64 bytes @ 0x08000D40) -- Updating C cache (64 bytes @ 0x08000D40) -- Read from C cache (2 bytes @ 0x08000D40) -- Read from C cache (2 bytes @ 0x08000D42) -- Simulated  returns 0x00 (0001ms, 0660ms total)
T2714 024:632 JLINK_ReadReg(R15 (PC))  returns 0x08000D44 (0000ms, 0660ms total)
T2714 024:632 JLINK_ReadReg(XPSR)  returns 0x61000000 (0000ms, 0660ms total)
T2714 024:632 JLINK_ReadReg(R0)  returns 0x03035283 (0000ms, 0660ms total)
T2714 024:632 JLINK_ReadReg(R1)  returns 0x200004C8 (0001ms, 0661ms total)
T2714 024:633 JLINK_ReadReg(R2)  returns 0x00000000 (0000ms, 0661ms total)
T2714 024:633 JLINK_ReadReg(R3)  returns 0x08002201 (0000ms, 0661ms total)
T2714 024:633 JLINK_ReadReg(R4)  returns 0x08002400 (0000ms, 0661ms total)
T2714 024:633 JLINK_ReadReg(R5)  returns 0x08002400 (0000ms, 0661ms total)
T2714 024:633 JLINK_ReadReg(R6)  returns 0x00000000 (0000ms, 0661ms total)
T2714 024:633 JLINK_ReadReg(R7)  returns 0x00000000 (0000ms, 0661ms total)
T2714 024:633 JLINK_ReadReg(R8)  returns 0x00000000 (0000ms, 0661ms total)
T2714 024:633 JLINK_ReadReg(R9)  returns 0x20000160 (0000ms, 0661ms total)
T2714 024:633 JLINK_ReadReg(R10)  returns 0x00000000 (0000ms, 0661ms total)
T2714 024:633 JLINK_ReadReg(R11)  returns 0x00000000 (0000ms, 0661ms total)
T2714 024:633 JLINK_ReadReg(R12)  returns 0x00000014 (0000ms, 0661ms total)
T2714 024:633 JLINK_ReadReg(R13 (SP))  returns 0x200004C0 (0000ms, 0661ms total)
T2714 024:633 JLINK_ReadReg(R14)  returns 0x08001DAF (0001ms, 0662ms total)
T2714 024:634 JLINK_ReadReg(R15 (PC))  returns 0x08000D44 (0000ms, 0662ms total)
T2714 024:634 JLINK_ReadReg(XPSR)  returns 0x61000000 (0000ms, 0662ms total)
T2714 024:634 JLINK_ReadReg(MSP)  returns 0x200004C0 (0000ms, 0662ms total)
T2714 024:634 JLINK_ReadReg(PSP)  returns 0x20001000 (0000ms, 0662ms total)
T2714 024:634 JLINK_ReadReg(CFBP)  returns 0x00000000 (0000ms, 0662ms total)
T36F8 024:636 JLINK_ReadMem (0x200004C4, 0x0004 Bytes, ...) -- Read from C cache (4 bytes @ 0x200004C4) - Data: B7 1F 00 08  returns 0x00 (0000ms, 0662ms total)
T36F8 024:636 JLINK_ReadMem (0x200004C0, 0x0004 Bytes, ...) -- Read from C cache (4 bytes @ 0x200004C0) - Data: 00 24 00 08  returns 0x00 (0000ms, 0662ms total)
T36F8 024:636 JLINK_ReadMem (0x00000000, 0x0001 Bytes, ...) -- Read from C cache (1 bytes @ 0x08000000) - Data: C8  returns 0x00 (0000ms, 0662ms total)
T36F8 024:636 JLINK_ReadMemU32(0xE0001004, 0x0001 Items, ...) - Data: FB 1B 00 00  returns 0x01 (0001ms, 0663ms total)
T2714 024:783 JLINK_Step() -- Read from C cache (2 bytes @ 0x08000D44) -- CPU_ReadMem(64 bytes @ 0x08001080) -- Updating C cache (64 bytes @ 0x08001080) -- Read from C cache (4 bytes @ 0x080010BC) -- Simulated  returns 0x00 (0001ms, 0664ms total)
T2714 024:784 JLINK_ReadReg(R15 (PC))  returns 0x08000D46 (0000ms, 0664ms total)
T2714 024:784 JLINK_ReadReg(XPSR)  returns 0x61000000 (0000ms, 0664ms total)
T2714 024:784 JLINK_ReadReg(R0)  returns 0x03035283 (0001ms, 0665ms total)
T2714 024:785 JLINK_ReadReg(R1)  returns 0x40021000 (0000ms, 0665ms total)
T2714 024:785 JLINK_ReadReg(R2)  returns 0x00000000 (0000ms, 0665ms total)
T2714 024:785 JLINK_ReadReg(R3)  returns 0x08002201 (0000ms, 0665ms total)
T2714 024:785 JLINK_ReadReg(R4)  returns 0x08002400 (0000ms, 0665ms total)
T2714 024:785 JLINK_ReadReg(R5)  returns 0x08002400 (0000ms, 0665ms total)
T2714 024:785 JLINK_ReadReg(R6)  returns 0x00000000 (0000ms, 0665ms total)
T2714 024:785 JLINK_ReadReg(R7)  returns 0x00000000 (0000ms, 0665ms total)
T2714 024:785 JLINK_ReadReg(R8)  returns 0x00000000 (0000ms, 0665ms total)
T2714 024:785 JLINK_ReadReg(R9)  returns 0x20000160 (0000ms, 0665ms total)
T2714 024:785 JLINK_ReadReg(R10)  returns 0x00000000 (0000ms, 0665ms total)
T2714 024:785 JLINK_ReadReg(R11)  returns 0x00000000 (0000ms, 0665ms total)
T2714 024:785 JLINK_ReadReg(R12)  returns 0x00000014 (0000ms, 0665ms total)
T2714 024:785 JLINK_ReadReg(R13 (SP))  returns 0x200004C0 (0000ms, 0665ms total)
T2714 024:785 JLINK_ReadReg(R14)  returns 0x08001DAF (0000ms, 0665ms total)
T2714 024:785 JLINK_ReadReg(R15 (PC))  returns 0x08000D46 (0000ms, 0665ms total)
T2714 024:785 JLINK_ReadReg(XPSR)  returns 0x61000000 (0000ms, 0665ms total)
T2714 024:785 JLINK_ReadReg(MSP)  returns 0x200004C0 (0001ms, 0666ms total)
T2714 024:786 JLINK_ReadReg(PSP)  returns 0x20001000 (0000ms, 0666ms total)
T2714 024:786 JLINK_ReadReg(CFBP)  returns 0x00000000 (0000ms, 0666ms total)
T36F8 024:789 JLINK_ReadMem (0x200004C4, 0x0004 Bytes, ...) -- Read from C cache (4 bytes @ 0x200004C4) - Data: B7 1F 00 08  returns 0x00 (0000ms, 0666ms total)
T36F8 024:789 JLINK_ReadMem (0x200004C0, 0x0004 Bytes, ...) -- Read from C cache (4 bytes @ 0x200004C0) - Data: 00 24 00 08  returns 0x00 (0000ms, 0666ms total)
T36F8 024:789 JLINK_ReadMem (0x00000000, 0x0001 Bytes, ...) -- Read from C cache (1 bytes @ 0x08000000) - Data: C8  returns 0x00 (0000ms, 0666ms total)
T36F8 024:789 JLINK_ReadMemU32(0xE0001004, 0x0001 Items, ...) - Data: FB 1B 00 00  returns 0x01 (0000ms, 0666ms total)
T2714 025:126 JLINK_Step() -- Read from C cache (2 bytes @ 0x08000D46) -- Not simulated -- CPU_WriteMem(4 bytes @ 0xE0001004)  returns 0x00 (0004ms, 0670ms total)
T2714 025:130 JLINK_ReadReg(R15 (PC))  returns 0x08000D48 (0000ms, 0670ms total)
T2714 025:130 JLINK_ReadReg(XPSR)  returns 0x61000000 (0000ms, 0670ms total)
T2714 025:130 JLINK_ReadReg(R0)  returns 0x03035283 (0000ms, 0670ms total)
T2714 025:131 JLINK_ReadReg(R1)  returns 0x40021000 (0000ms, 0671ms total)
T2714 025:131 JLINK_ReadReg(R2)  returns 0x00000000 (0000ms, 0671ms total)
T2714 025:131 JLINK_ReadReg(R3)  returns 0x08002201 (0000ms, 0671ms total)
T2714 025:131 JLINK_ReadReg(R4)  returns 0x08002400 (0000ms, 0671ms total)
T2714 025:131 JLINK_ReadReg(R5)  returns 0x08002400 (0000ms, 0671ms total)
T2714 025:131 JLINK_ReadReg(R6)  returns 0x00000000 (0000ms, 0671ms total)
T2714 025:131 JLINK_ReadReg(R7)  returns 0x00000000 (0000ms, 0671ms total)
T2714 025:131 JLINK_ReadReg(R8)  returns 0x00000000 (0000ms, 0671ms total)
T2714 025:131 JLINK_ReadReg(R9)  returns 0x20000160 (0000ms, 0671ms total)
T2714 025:131 JLINK_ReadReg(R10)  returns 0x00000000 (0000ms, 0671ms total)
T2714 025:131 JLINK_ReadReg(R11)  returns 0x00000000 (0000ms, 0671ms total)
T2714 025:131 JLINK_ReadReg(R12)  returns 0x00000014 (0000ms, 0671ms total)
T2714 025:131 JLINK_ReadReg(R13 (SP))  returns 0x200004C0 (0000ms, 0671ms total)
T2714 025:131 JLINK_ReadReg(R14)  returns 0x08001DAF (0000ms, 0671ms total)
T2714 025:131 JLINK_ReadReg(R15 (PC))  returns 0x08000D48 (0000ms, 0671ms total)
T2714 025:131 JLINK_ReadReg(XPSR)  returns 0x61000000 (0000ms, 0671ms total)
T2714 025:131 JLINK_ReadReg(MSP)  returns 0x200004C0 (0001ms, 0672ms total)
T2714 025:132 JLINK_ReadReg(PSP)  returns 0x20001000 (0001ms, 0673ms total)
T2714 025:133 JLINK_ReadReg(CFBP)  returns 0x00000000 (0000ms, 0673ms total)
T36F8 025:133 JLINK_ReadMem (0x200004C4, 0x0004 Bytes, ...) -- CPU_ReadMem(64 bytes @ 0x200004C0) -- Updating C cache (64 bytes @ 0x200004C0) -- Read from C cache (4 bytes @ 0x200004C4) - Data: B7 1F 00 08  returns 0x00 (0000ms, 0673ms total)
T36F8 025:133 JLINK_ReadMem (0x200004C0, 0x0004 Bytes, ...) -- Read from C cache (4 bytes @ 0x200004C0) - Data: 00 24 00 08  returns 0x00 (0000ms, 0673ms total)
T36F8 025:133 JLINK_ReadMem (0x00000000, 0x0001 Bytes, ...) -- CPU_ReadMem(4 bytes @ 0x00000004) -- CPU_ReadMem(64 bytes @ 0x08000000) -- Updating C cache (64 bytes @ 0x08000000) -- Read from C cache (1 bytes @ 0x08000000) - Data: C8  returns 0x00 (0001ms, 0674ms total)
T36F8 025:134 JLINK_ReadMemU32(0xE0001004, 0x0001 Items, ...) -- CPU_ReadMem(4 bytes @ 0xE0001004) - Data: FF 1B 00 00  returns 0x01 (0001ms, 0675ms total)
T2714 025:296 JLINK_Step() -- CPU_ReadMem(64 bytes @ 0x08000D40) -- Updating C cache (64 bytes @ 0x08000D40) -- Read from C cache (2 bytes @ 0x08000D48) -- Simulated  returns 0x00 (0001ms, 0676ms total)
T2714 025:297 JLINK_ReadReg(R15 (PC))  returns 0x08000D4A (0000ms, 0676ms total)
T2714 025:297 JLINK_ReadReg(XPSR)  returns 0x61000000 (0000ms, 0676ms total)
T2714 025:297 JLINK_ReadReg(R0)  returns 0x40021000 (0000ms, 0676ms total)
T2714 025:297 JLINK_ReadReg(R1)  returns 0x40021000 (0000ms, 0676ms total)
T2714 025:297 JLINK_ReadReg(R2)  returns 0x00000000 (0000ms, 0676ms total)
T2714 025:297 JLINK_ReadReg(R3)  returns 0x08002201 (0000ms, 0676ms total)
T2714 025:297 JLINK_ReadReg(R4)  returns 0x08002400 (0000ms, 0676ms total)
T2714 025:297 JLINK_ReadReg(R5)  returns 0x08002400 (0000ms, 0676ms total)
T2714 025:297 JLINK_ReadReg(R6)  returns 0x00000000 (0000ms, 0676ms total)
T2714 025:297 JLINK_ReadReg(R7)  returns 0x00000000 (0001ms, 0677ms total)
T2714 025:298 JLINK_ReadReg(R8)  returns 0x00000000 (0000ms, 0677ms total)
T2714 025:298 JLINK_ReadReg(R9)  returns 0x20000160 (0000ms, 0677ms total)
T2714 025:298 JLINK_ReadReg(R10)  returns 0x00000000 (0000ms, 0677ms total)
T2714 025:298 JLINK_ReadReg(R11)  returns 0x00000000 (0000ms, 0677ms total)
T2714 025:298 JLINK_ReadReg(R12)  returns 0x00000014 (0000ms, 0677ms total)
T2714 025:298 JLINK_ReadReg(R13 (SP))  returns 0x200004C0 (0000ms, 0677ms total)
T2714 025:298 JLINK_ReadReg(R14)  returns 0x08001DAF (0000ms, 0677ms total)
T2714 025:298 JLINK_ReadReg(R15 (PC))  returns 0x08000D4A (0000ms, 0677ms total)
T2714 025:298 JLINK_ReadReg(XPSR)  returns 0x61000000 (0000ms, 0677ms total)
T2714 025:298 JLINK_ReadReg(MSP)  returns 0x200004C0 (0000ms, 0677ms total)
T2714 025:298 JLINK_ReadReg(PSP)  returns 0x20001000 (0001ms, 0678ms total)
T2714 025:299 JLINK_ReadReg(CFBP)  returns 0x00000000 (0000ms, 0678ms total)
T36F8 025:300 JLINK_ReadMem (0x200004C4, 0x0004 Bytes, ...) -- Read from C cache (4 bytes @ 0x200004C4) - Data: B7 1F 00 08  returns 0x00 (0000ms, 0678ms total)
T36F8 025:300 JLINK_ReadMem (0x200004C0, 0x0004 Bytes, ...) -- Read from C cache (4 bytes @ 0x200004C0) - Data: 00 24 00 08  returns 0x00 (0000ms, 0678ms total)
T36F8 025:300 JLINK_ReadMem (0x00000000, 0x0001 Bytes, ...) -- Read from C cache (1 bytes @ 0x08000000) - Data: C8  returns 0x00 (0001ms, 0679ms total)
T36F8 025:301 JLINK_ReadMemU32(0xE0001004, 0x0001 Items, ...) - Data: FF 1B 00 00  returns 0x01 (0000ms, 0679ms total)
T36F8 025:304 JLINK_ReadMem (0x08000D4A, 0x0002 Bytes, ...) -- Read from C cache (2 bytes @ 0x08000D4A) - Data: 40 68  returns 0x00 (0000ms, 0679ms total)
T36F8 025:304 JLINK_ReadMem (0x08000D4C, 0x003C Bytes, ...) -- CPU_ReadMem(64 bytes @ 0x08000D80) -- Updating C cache (64 bytes @ 0x08000D80) -- Read from C cache (60 bytes @ 0x08000D4C) - Data: DC 49 08 40 DA 49 48 60 08 46 00 68 DA 49 08 40 ...  returns 0x00 (0001ms, 0680ms total)
T2714 027:288 JLINK_Step() -- Read from C cache (2 bytes @ 0x08000D4A) -- Not simulated -- CPU_WriteMem(4 bytes @ 0xE0001004)  returns 0x00 (0005ms, 0685ms total)
T2714 027:293 JLINK_ReadReg(R15 (PC))  returns 0x08000D4C (0000ms, 0685ms total)
T2714 027:293 JLINK_ReadReg(XPSR)  returns 0x61000000 (0000ms, 0685ms total)
T2714 027:293 JLINK_ReadReg(R0)  returns 0x001D040A (0000ms, 0685ms total)
T2714 027:293 JLINK_ReadReg(R1)  returns 0x40021000 (0000ms, 0685ms total)
T2714 027:293 JLINK_ReadReg(R2)  returns 0x00000000 (0000ms, 0685ms total)
T2714 027:293 JLINK_ReadReg(R3)  returns 0x08002201 (0000ms, 0685ms total)
T2714 027:293 JLINK_ReadReg(R4)  returns 0x08002400 (0000ms, 0685ms total)
T2714 027:293 JLINK_ReadReg(R5)  returns 0x08002400 (0000ms, 0685ms total)
T2714 027:293 JLINK_ReadReg(R6)  returns 0x00000000 (0001ms, 0686ms total)
T2714 027:294 JLINK_ReadReg(R7)  returns 0x00000000 (0000ms, 0686ms total)
T2714 027:294 JLINK_ReadReg(R8)  returns 0x00000000 (0000ms, 0686ms total)
T2714 027:294 JLINK_ReadReg(R9)  returns 0x20000160 (0000ms, 0686ms total)
T2714 027:294 JLINK_ReadReg(R10)  returns 0x00000000 (0000ms, 0686ms total)
T2714 027:294 JLINK_ReadReg(R11)  returns 0x00000000 (0000ms, 0686ms total)
T2714 027:294 JLINK_ReadReg(R12)  returns 0x00000014 (0000ms, 0686ms total)
T2714 027:294 JLINK_ReadReg(R13 (SP))  returns 0x200004C0 (0000ms, 0686ms total)
T2714 027:294 JLINK_ReadReg(R14)  returns 0x08001DAF (0000ms, 0686ms total)
T2714 027:294 JLINK_ReadReg(R15 (PC))  returns 0x08000D4C (0000ms, 0686ms total)
T2714 027:294 JLINK_ReadReg(XPSR)  returns 0x61000000 (0000ms, 0686ms total)
T2714 027:294 JLINK_ReadReg(MSP)  returns 0x200004C0 (0000ms, 0686ms total)
T2714 027:294 JLINK_ReadReg(PSP)  returns 0x20001000 (0000ms, 0686ms total)
T2714 027:294 JLINK_ReadReg(CFBP)  returns 0x00000000 (0000ms, 0686ms total)
T36F8 027:295 JLINK_ReadMem (0x200004C4, 0x0004 Bytes, ...) -- CPU_ReadMem(64 bytes @ 0x200004C0) -- Updating C cache (64 bytes @ 0x200004C0) -- Read from C cache (4 bytes @ 0x200004C4) - Data: B7 1F 00 08  returns 0x00 (0001ms, 0687ms total)
T36F8 027:296 JLINK_ReadMem (0x200004C0, 0x0004 Bytes, ...) -- Read from C cache (4 bytes @ 0x200004C0) - Data: 00 24 00 08  returns 0x00 (0000ms, 0687ms total)
T36F8 027:296 JLINK_ReadMem (0x00000000, 0x0001 Bytes, ...) -- CPU_ReadMem(4 bytes @ 0x00000004) -- CPU_ReadMem(64 bytes @ 0x08000000) -- Updating C cache (64 bytes @ 0x08000000) -- Read from C cache (1 bytes @ 0x08000000) - Data: C8  returns 0x00 (0001ms, 0688ms total)
T36F8 027:297 JLINK_ReadMemU32(0xE0001004, 0x0001 Items, ...) -- CPU_ReadMem(4 bytes @ 0xE0001004) - Data: 03 1C 00 00  returns 0x01 (0000ms, 0688ms total)
T2714 027:457 JLINK_Step() -- CPU_ReadMem(64 bytes @ 0x08000D40) -- Updating C cache (64 bytes @ 0x08000D40) -- Read from C cache (2 bytes @ 0x08000D4C) -- CPU_ReadMem(64 bytes @ 0x080010C0) -- Updating C cache (64 bytes @ 0x080010C0) -- Read from C cache (4 bytes @ 0x080010C0) -- Simulated  returns 0x00 (0002ms, 0690ms total)
T2714 027:459 JLINK_ReadReg(R15 (PC))  returns 0x08000D4E (0000ms, 0690ms total)
T2714 027:459 JLINK_ReadReg(XPSR)  returns 0x61000000 (0000ms, 0690ms total)
T2714 027:459 JLINK_ReadReg(R0)  returns 0x001D040A (0000ms, 0690ms total)
T2714 027:459 JLINK_ReadReg(R1)  returns 0xF8FF0000 (0000ms, 0690ms total)
T2714 027:459 JLINK_ReadReg(R2)  returns 0x00000000 (0000ms, 0690ms total)
T2714 027:459 JLINK_ReadReg(R3)  returns 0x08002201 (0000ms, 0690ms total)
T2714 027:459 JLINK_ReadReg(R4)  returns 0x08002400 (0000ms, 0690ms total)
T2714 027:459 JLINK_ReadReg(R5)  returns 0x08002400 (0000ms, 0690ms total)
T2714 027:459 JLINK_ReadReg(R6)  returns 0x00000000 (0000ms, 0690ms total)
T2714 027:459 JLINK_ReadReg(R7)  returns 0x00000000 (0000ms, 0690ms total)
T2714 027:459 JLINK_ReadReg(R8)  returns 0x00000000 (0000ms, 0690ms total)
T2714 027:459 JLINK_ReadReg(R9)  returns 0x20000160 (0000ms, 0690ms total)
T2714 027:459 JLINK_ReadReg(R10)  returns 0x00000000 (0000ms, 0690ms total)
T2714 027:459 JLINK_ReadReg(R11)  returns 0x00000000 (0000ms, 0690ms total)
T2714 027:460 JLINK_ReadReg(R12)  returns 0x00000014 (0000ms, 0691ms total)
T2714 027:460 JLINK_ReadReg(R13 (SP))  returns 0x200004C0 (0000ms, 0691ms total)
T2714 027:460 JLINK_ReadReg(R14)  returns 0x08001DAF (0000ms, 0691ms total)
T2714 027:460 JLINK_ReadReg(R15 (PC))  returns 0x08000D4E (0000ms, 0691ms total)
T2714 027:460 JLINK_ReadReg(XPSR)  returns 0x61000000 (0000ms, 0691ms total)
T2714 027:460 JLINK_ReadReg(MSP)  returns 0x200004C0 (0000ms, 0691ms total)
T2714 027:460 JLINK_ReadReg(PSP)  returns 0x20001000 (0000ms, 0691ms total)
T2714 027:460 JLINK_ReadReg(CFBP)  returns 0x00000000 (0000ms, 0691ms total)
T36F8 027:462 JLINK_ReadMem (0x200004C4, 0x0004 Bytes, ...) -- Read from C cache (4 bytes @ 0x200004C4) - Data: B7 1F 00 08  returns 0x00 (0000ms, 0691ms total)
T36F8 027:462 JLINK_ReadMem (0x200004C0, 0x0004 Bytes, ...) -- Read from C cache (4 bytes @ 0x200004C0) - Data: 00 24 00 08  returns 0x00 (0000ms, 0691ms total)
T36F8 027:463 JLINK_ReadMem (0x00000000, 0x0001 Bytes, ...) -- Read from C cache (1 bytes @ 0x08000000) - Data: C8  returns 0x00 (0000ms, 0691ms total)
T36F8 027:463 JLINK_ReadMemU32(0xE0001004, 0x0001 Items, ...) - Data: 03 1C 00 00  returns 0x01 (0000ms, 0691ms total)
T2714 027:607 JLINK_Step() -- Read from C cache (2 bytes @ 0x08000D4E) -- Simulated  returns 0x00 (0000ms, 0691ms total)
T2714 027:607 JLINK_ReadReg(R15 (PC))  returns 0x08000D50 (0000ms, 0691ms total)
T2714 027:607 JLINK_ReadReg(XPSR)  returns 0x21000000 (0000ms, 0691ms total)
T2714 027:608 JLINK_ReadReg(R0)  returns 0x001D0000 (0000ms, 0691ms total)
T2714 027:608 JLINK_ReadReg(R1)  returns 0xF8FF0000 (0000ms, 0691ms total)
T2714 027:608 JLINK_ReadReg(R2)  returns 0x00000000 (0000ms, 0691ms total)
T2714 027:608 JLINK_ReadReg(R3)  returns 0x08002201 (0000ms, 0691ms total)
T2714 027:608 JLINK_ReadReg(R4)  returns 0x08002400 (0000ms, 0691ms total)
T2714 027:608 JLINK_ReadReg(R5)  returns 0x08002400 (0000ms, 0691ms total)
T2714 027:608 JLINK_ReadReg(R6)  returns 0x00000000 (0000ms, 0691ms total)
T2714 027:608 JLINK_ReadReg(R7)  returns 0x00000000 (0000ms, 0691ms total)
T2714 027:608 JLINK_ReadReg(R8)  returns 0x00000000 (0000ms, 0691ms total)
T2714 027:608 JLINK_ReadReg(R9)  returns 0x20000160 (0000ms, 0691ms total)
T2714 027:608 JLINK_ReadReg(R10)  returns 0x00000000 (0000ms, 0691ms total)
T2714 027:608 JLINK_ReadReg(R11)  returns 0x00000000 (0000ms, 0691ms total)
T2714 027:608 JLINK_ReadReg(R12)  returns 0x00000014 (0000ms, 0691ms total)
T2714 027:608 JLINK_ReadReg(R13 (SP))  returns 0x200004C0 (0000ms, 0691ms total)
T2714 027:608 JLINK_ReadReg(R14)  returns 0x08001DAF (0000ms, 0691ms total)
T2714 027:608 JLINK_ReadReg(R15 (PC))  returns 0x08000D50 (0000ms, 0691ms total)
T2714 027:608 JLINK_ReadReg(XPSR)  returns 0x21000000 (0000ms, 0691ms total)
T2714 027:609 JLINK_ReadReg(MSP)  returns 0x200004C0 (0000ms, 0692ms total)
T2714 027:609 JLINK_ReadReg(PSP)  returns 0x20001000 (0000ms, 0692ms total)
T2714 027:609 JLINK_ReadReg(CFBP)  returns 0x00000000 (0000ms, 0692ms total)
T36F8 027:612 JLINK_ReadMem (0x200004C4, 0x0004 Bytes, ...) -- Read from C cache (4 bytes @ 0x200004C4) - Data: B7 1F 00 08  returns 0x00 (0000ms, 0692ms total)
T36F8 027:612 JLINK_ReadMem (0x200004C0, 0x0004 Bytes, ...) -- Read from C cache (4 bytes @ 0x200004C0) - Data: 00 24 00 08  returns 0x00 (0000ms, 0692ms total)
T36F8 027:612 JLINK_ReadMem (0x00000000, 0x0001 Bytes, ...) -- Read from C cache (1 bytes @ 0x08000000) - Data: C8  returns 0x00 (0000ms, 0692ms total)
T36F8 027:612 JLINK_ReadMemU32(0xE0001004, 0x0001 Items, ...) - Data: 03 1C 00 00  returns 0x01 (0000ms, 0692ms total)
T2714 027:775 JLINK_Step() -- Read from C cache (2 bytes @ 0x08000D50) -- CPU_ReadMem(64 bytes @ 0x08001080) -- Updating C cache (64 bytes @ 0x08001080) -- Read from C cache (4 bytes @ 0x080010BC) -- Simulated  returns 0x00 (0001ms, 0693ms total)
